
T1C6C 000:306 SEGGER J-Link V4.98e Log File (0000ms, 0264ms total)
T1C6C 000:306 DLL Compiled: May  5 2015 11:00:52 (0000ms, 0264ms total)
T1C6C 000:306 Logging started @ 2018-01-18 12:03 (0001ms, 0265ms total)
T1C6C 000:307 JLINK_SetWarnOutHandler(...) (0000ms, 0265ms total)
T1C6C 000:307 JLINK_OpenEx(...)
Firmware: J-Link ARM V8 compiled Nov 28 2014 13:44:46
Hardware: V8.00
S/N: 12345678
Feature(s): RDI,FlashDL,FlashBP,JFlash,GDBFull  returns O.K. (0264ms, 0529ms total)
T1C6C 000:571 JLINK_SetErrorOutHandler(...) (0000ms, 0529ms total)
T1C6C 000:571 JLINK_ExecCommand("ProjectFile = "F:\FILE\STM32\DEMO\STM32F1xWOW\DEMO\project\JLinkSettings.ini"", ...)  returns 0x00 (0001ms, 0530ms total)
T1C6C 000:576 JLINK_ExecCommand("Device = STM32F103RB", ...)Device "STM32F103RB" selected.  returns 0x00 (0004ms, 0534ms total)
T1C6C 000:581 JLINK_ExecCommand("DisableConnectionTimeout", ...)  returns 0x01 (0000ms, 0534ms total)
T1C6C 000:581 JLINK_GetHardwareVersion()  returns 0x13880 (0000ms, 0534ms total)
T1C6C 000:581 JLINK_GetDLLVersion()  returns 49805 (0000ms, 0534ms total)
T1C6C 000:581 JLINK_GetFirmwareString(...) (0000ms, 0534ms total)
T1C6C 000:606 JLINK_GetDLLVersion()  returns 49805 (0000ms, 0534ms total)
T1C6C 000:606 JLINK_GetCompileDateTime() (0000ms, 0534ms total)
T1C6C 000:612 JLINK_GetFirmwareString(...) (0000ms, 0534ms total)
T1C6C 000:614 JLINK_GetHardwareVersion()  returns 0x13880 (0000ms, 0534ms total)
T1C6C 000:623 JLINK_TIF_Select(JLINKARM_TIF_SWD)  returns 0x00 (0001ms, 0535ms total)
T1C6C 000:624 JLINK_SetSpeed(10000) (0000ms, 0535ms total)
T1C6C 000:624 JLINK_GetId() >0x108 TIF>Found SWD-DP with ID 0x1BA01477 >0x0D TIF> >0x28 TIF> >0x0D TIF> >0x28 TIF> >0x0D TIF> >0x21 TIF> >0x0D TIF> >0x28 TIF> >0x0D TIF> >0x28 TIF> >0x0D TIF> >0x28 TIF> >0x0D TIF> >0x21 TIF> >0x0D TIF> >0x21 TIF> >0x0D TIF> >0x28 TIF> >0x0D TIF> >0x21 TIF> >0x0D TIF> >0x21 TIF> >0x108 TIF>Found SWD-DP with ID 0x1BA01477 >0x0D TIF> >0x21 TIF> >0x0D TIF> >0x28 TIF> >0x0D TIF> >0x28 TIF> >0x0D TIF> >0x21 TIF> >0x0D TIF> >0x28 TIF> >0x0D TIF> >0x21 TIF> >0x0D TIF> >0x21 TIF>
 >0x0D TIF> >0x21 TIF> >0x0D TIF> >0x21 TIF> >0x0D TIF> >0x28 TIF> >0x0D TIF> >0x28 TIF> >0x0D TIF> >0x21 TIF> >0x0D TIF> >0x28 TIF> >0x0D TIF> >0x28 TIF> >0x0D TIF> >0x28 TIF> >0x0D TIF> >0x21 TIF> >0x0D TIF> >0x21 TIF> >0x0D TIF> >0x28 TIF> >0x0D TIF> >0x21 TIF> >0x0D TIF> >0x21 TIF>Found Cortex-M3 r1p1, Little endian. -- CPU_WriteMem(4 bytes @ 0xE0002000) -- CPU_ReadMem(4 bytes @ 0xE000EDF0) -- CPU_ReadMem(4 bytes @ 0xE0002000)FPUnit: 6 code (BP) slots and 2 literal slots
 -- CPU_ReadMem(4 bytes @ 0xE000EDFC) -- CPU_ReadMem(4 bytes @ 0xE0001000) -- CPU_WriteMem(4 bytes @ 0xE0001000) -- CPU_ReadMem(4 bytes @ 0xE000ED88) -- CPU_WriteMem(4 bytes @ 0xE000ED88) -- CPU_ReadMem(4 bytes @ 0xE000ED88) -- CPU_WriteMem(4 bytes @ 0xE000ED88)CoreSight components:ROMTbl 0 @ E00FF000 -- CPU_ReadMem(16 bytes @ 0xE00FF000) -- CPU_ReadMem(16 bytes @ 0xE000EFF0) -- CPU_ReadMem(16 bytes @ 0xE000EFE0)ROMTbl 0 [0]: FFF0F000, CID: B105E00D, PID: 001BB000 SCS
 -- CPU_ReadMem(16 bytes @ 0xE0001FF0) -- CPU_ReadMem(16 bytes @ 0xE0001FE0)ROMTbl 0 [1]: FFF02000, CID: B105E00D, PID: 001BB002 DWT -- CPU_ReadMem(16 bytes @ 0xE0002FF0) -- CPU_ReadMem(16 bytes @ 0xE0002FE0)ROMTbl 0 [2]: FFF03000, CID: B105E00D, PID: 000BB003 FPB -- CPU_ReadMem(16 bytes @ 0xE0000FF0) -- CPU_ReadMem(16 bytes @ 0xE0000FE0)ROMTbl 0 [3]: FFF01000, CID: B105E00D, PID: 001BB001 ITM -- CPU_ReadMem(16 bytes @ 0xE00FF010) -- CPU_ReadMem(16 bytes @ 0xE0040FF0)
 -- CPU_ReadMem(16 bytes @ 0xE0040FE0)ROMTbl 0 [4]: FFF41000, CID: B105900D, PID: 001BB923 TPIU-Lite -- CPU_ReadMem(16 bytes @ 0xE0041FF0) -- CPU_ReadMem(16 bytes @ 0xE0041FE0)ROMTbl 0 [5]: FFF42000, CID: B105900D, PID: 101BB924 ETM-M3 >0x0D TIF> >0x21 TIF>  returns 0x1BA01477 (0050ms, 0585ms total)
T1C6C 000:674 JLINK_GetDLLVersion()  returns 49805 (0000ms, 0585ms total)
T1C6C 000:674 JLINK_CORE_GetFound()  returns 0x30000FF (0000ms, 0585ms total)
T1C6C 000:674 JLINK_GetDebugInfo(0x100) -- Value=0xE00FF003  returns 0x00 (0000ms, 0585ms total)
T1C6C 000:675 JLINK_ReadMem (0xE00FF000, 0x0020 Bytes, ...) -- CPU is running -- CPU_ReadMem(32 bytes @ 0xE00FF000) - Data: 03 F0 F0 FF 03 20 F0 FF 03 30 F0 FF 03 10 F0 FF ...  returns 0x00 (0001ms, 0586ms total)
T1C6C 000:676 JLINK_ReadMem (0xE000EFF0, 0x0010 Bytes, ...) -- CPU is running -- CPU_ReadMem(16 bytes @ 0xE000EFF0) - Data: 0D 00 00 00 E0 00 00 00 05 00 00 00 B1 00 00 00  returns 0x00 (0001ms, 0587ms total)
T1C6C 000:677 JLINK_ReadMem (0xE000EFD0, 0x0020 Bytes, ...) -- CPU is running -- CPU_ReadMem(32 bytes @ 0xE000EFD0) - Data: 04 00 00 00 00 00 00 00 00 00 00 00 00 00 00 00 ...  returns 0x00 (0000ms, 0587ms total)
T1C6C 000:677 JLINK_ReadMem (0xE0001FF0, 0x0010 Bytes, ...) -- CPU is running -- CPU_ReadMem(16 bytes @ 0xE0001FF0) - Data: 0D 00 00 00 E0 00 00 00 05 00 00 00 B1 00 00 00  returns 0x00 (0001ms, 0588ms total)
T1C6C 000:678 JLINK_ReadMem (0xE0001FD0, 0x0020 Bytes, ...) -- CPU is running -- CPU_ReadMem(32 bytes @ 0xE0001FD0) - Data: 04 00 00 00 00 00 00 00 00 00 00 00 00 00 00 00 ...  returns 0x00 (0001ms, 0589ms total)
T1C6C 000:679 JLINK_ReadMem (0xE0002FF0, 0x0010 Bytes, ...) -- CPU is running -- CPU_ReadMem(16 bytes @ 0xE0002FF0) - Data: 0D 00 00 00 E0 00 00 00 05 00 00 00 B1 00 00 00  returns 0x00 (0001ms, 0590ms total)
T1C6C 000:680 JLINK_ReadMem (0xE0002FD0, 0x0020 Bytes, ...) -- CPU is running -- CPU_ReadMem(32 bytes @ 0xE0002FD0) - Data: 04 00 00 00 00 00 00 00 00 00 00 00 00 00 00 00 ...  returns 0x00 (0000ms, 0590ms total)
T1C6C 000:680 JLINK_ReadMem (0xE0000FF0, 0x0010 Bytes, ...) -- CPU is running -- CPU_ReadMem(16 bytes @ 0xE0000FF0) - Data: 0D 00 00 00 E0 00 00 00 05 00 00 00 B1 00 00 00  returns 0x00 (0001ms, 0591ms total)
T1C6C 000:681 JLINK_ReadMem (0xE0000FD0, 0x0020 Bytes, ...) -- CPU is running -- CPU_ReadMem(32 bytes @ 0xE0000FD0) - Data: 04 00 00 00 00 00 00 00 00 00 00 00 00 00 00 00 ...  returns 0x00 (0000ms, 0591ms total)
T1C6C 000:681 JLINK_ReadMem (0xE0040FF0, 0x0010 Bytes, ...) -- CPU is running -- CPU_ReadMem(16 bytes @ 0xE0040FF0) - Data: 0D 00 00 00 90 00 00 00 05 00 00 00 B1 00 00 00  returns 0x00 (0000ms, 0591ms total)
T1C6C 000:681 JLINK_ReadMem (0xE0040FD0, 0x0020 Bytes, ...) -- CPU is running -- CPU_ReadMem(32 bytes @ 0xE0040FD0) - Data: 04 00 00 00 00 00 00 00 00 00 00 00 00 00 00 00 ...  returns 0x00 (0002ms, 0593ms total)
T1C6C 000:683 JLINK_ReadMem (0xE0041FF0, 0x0010 Bytes, ...) -- CPU is running -- CPU_ReadMem(16 bytes @ 0xE0041FF0) - Data: 0D 00 00 00 90 00 00 00 05 00 00 00 B1 00 00 00  returns 0x00 (0000ms, 0593ms total)
T1C6C 000:683 JLINK_ReadMem (0xE0041FD0, 0x0020 Bytes, ...) -- CPU is running -- CPU_ReadMem(32 bytes @ 0xE0041FD0) - Data: 04 00 00 00 00 00 00 00 00 00 00 00 00 00 00 00 ...  returns 0x00 (0001ms, 0594ms total)
T1C6C 000:684 JLINK_ReadMemU32(0xE000ED00, 0x0001 Items, ...) -- CPU is running -- CPU_ReadMem(4 bytes @ 0xE000ED00) - Data: 31 C2 1F 41  returns 0x01 (0000ms, 0594ms total)
T1C6C 000:684 JLINK_SetResetType(JLINKARM_RESET_TYPE_NORMAL)  returns JLINKARM_RESET_TYPE_NORMAL (0000ms, 0594ms total)
T1C6C 000:684 JLINK_Reset() -- CPU is running -- CPU_WriteMem(4 bytes @ 0xE000EDF0) -- CPU is running -- CPU_WriteMem(4 bytes @ 0xE000EDFC) >0x35 TIF> -- CPU is running -- CPU_WriteMem(4 bytes @ 0xE000ED0C) -- CPU is running -- CPU_ReadMem(4 bytes @ 0xE000EDF0) -- CPU is running -- CPU_ReadMem(4 bytes @ 0xE000EDF0) -- CPU is running -- CPU_ReadMem(4 bytes @ 0xE000EDF0) -- CPU is running -- CPU_ReadMem(4 bytes @ 0xE000EDF0) -- CPU is running -- CPU_ReadMem(4 bytes @ 0xE000EDF0) -- CPU is running
 -- CPU_ReadMem(4 bytes @ 0xE000EDF0) -- CPU is running -- CPU_ReadMem(4 bytes @ 0xE000EDF0) -- CPU is running -- CPU_ReadMem(4 bytes @ 0xE000EDF0) -- CPU is running -- CPU_ReadMem(4 bytes @ 0xE000EDF0) -- CPU is running -- CPU_ReadMem(4 bytes @ 0xE000EDF0) -- CPU is running -- CPU_ReadMem(4 bytes @ 0xE000EDF0) -- CPU is running -- CPU_WriteMem(4 bytes @ 0xE000EDF0) -- CPU is running -- CPU_WriteMem(4 bytes @ 0xE000EDFC) -- CPU is running -- CPU_ReadMem(4 bytes @ 0xE000EDF0)
 -- CPU_WriteMem(4 bytes @ 0xE0002000) -- CPU_ReadMem(4 bytes @ 0xE000EDFC) -- CPU_ReadMem(4 bytes @ 0xE0001000) (0020ms, 0614ms total)
T1C6C 000:704 JLINK_Halt()  returns 0x00 (0000ms, 0614ms total)
T1C6C 000:704 JLINK_IsHalted()  returns TRUE (0000ms, 0614ms total)
T1C6C 000:704 JLINK_ReadMemU32(0xE000EDF0, 0x0001 Items, ...) -- CPU_ReadMem(4 bytes @ 0xE000EDF0) - Data: 03 00 03 00  returns 0x01 (0001ms, 0615ms total)
T1C6C 000:705 JLINK_WriteU32(0xE000EDF0, 0xA05F0003) -- CPU_WriteMem(4 bytes @ 0xE000EDF0)  returns 0x00 (0000ms, 0615ms total)
T1C6C 000:705 JLINK_WriteU32(0xE000EDFC, 0x01000000) -- CPU_WriteMem(4 bytes @ 0xE000EDFC)  returns 0x00 (0001ms, 0616ms total)
T1C6C 000:712 JLINK_GetHWStatus(...)  returns 0x00 (0000ms, 0616ms total)
T1C6C 000:717 JLINK_GetNumBPUnits(Type = 0xFFFFFF00)  returns 0x06 (0000ms, 0616ms total)
T1C6C 000:717 JLINK_GetNumBPUnits(Type = 0xF0)  returns 0x2000 (0000ms, 0616ms total)
T1C6C 000:717 JLINK_GetNumWPUnits()  returns 0x04 (0000ms, 0616ms total)
T1C6C 000:721 JLINK_GetSpeed()  returns 0xFA0 (0000ms, 0616ms total)
T1C6C 000:723 JLINK_ReadMemU32(0xE000E004, 0x0001 Items, ...) -- CPU_ReadMem(4 bytes @ 0xE000E004) - Data: 01 00 00 00  returns 0x01 (0001ms, 0617ms total)
T1C6C 000:724 JLINK_ReadMemU32(0xE000E004, 0x0001 Items, ...) -- CPU_ReadMem(4 bytes @ 0xE000E004) - Data: 01 00 00 00  returns 0x01 (0000ms, 0617ms total)
T1C6C 000:724 JLINK_WriteMem(0xE0001000, 0x001C Bytes, ...) - Data: 01 00 00 00 00 00 00 00 00 00 00 00 00 00 00 00 ... -- CPU_WriteMem(28 bytes @ 0xE0001000)  returns 0x1C (0001ms, 0618ms total)
T1C6C 000:725 JLINK_ReadMem (0xE0001000, 0x001C Bytes, ...) -- CPU_ReadMem(28 bytes @ 0xE0001000) - Data: 01 00 00 40 00 00 00 00 00 00 00 00 00 00 00 00 ...  returns 0x00 (0001ms, 0619ms total)
T1C6C 000:726 JLINK_Halt()  returns 0x00 (0000ms, 0619ms total)
T1C6C 000:726 JLINK_IsHalted()  returns TRUE (0000ms, 0619ms total)
T1C6C 000:728 JLINK_WriteMem(0x20000000, 0x0164 Bytes, ...) - Data: 00 BE 0A E0 0D 78 2D 06 68 40 08 24 40 00 00 D3 ... -- CPU_WriteMem(356 bytes @ 0x20000000)  returns 0x164 (0003ms, 0622ms total)
T1C6C 000:731 JLINK_WriteReg(R0, 0x08000000)  returns 0x00 (0000ms, 0622ms total)
T1C6C 000:731 JLINK_WriteReg(R1, 0x007A1200)  returns 0x00 (0000ms, 0622ms total)
T1C6C 000:731 JLINK_WriteReg(R2, 0x00000001)  returns 0x00 (0000ms, 0622ms total)
T1C6C 000:731 JLINK_WriteReg(R3, 0x00000000)  returns 0x00 (0000ms, 0622ms total)
T1C6C 000:731 JLINK_WriteReg(R4, 0x00000000)  returns 0x00 (0000ms, 0622ms total)
T1C6C 000:731 JLINK_WriteReg(R5, 0x00000000)  returns 0x00 (0000ms, 0622ms total)
T1C6C 000:731 JLINK_WriteReg(R6, 0x00000000)  returns 0x00 (0000ms, 0622ms total)
T1C6C 000:731 JLINK_WriteReg(R7, 0x00000000)  returns 0x00 (0000ms, 0622ms total)
T1C6C 000:731 JLINK_WriteReg(R8, 0x00000000)  returns 0x00 (0000ms, 0622ms total)
T1C6C 000:731 JLINK_WriteReg(R9, 0x20000160)  returns 0x00 (0000ms, 0622ms total)
T1C6C 000:731 JLINK_WriteReg(R10, 0x00000000)  returns 0x00 (0000ms, 0622ms total)
T1C6C 000:731 JLINK_WriteReg(R11, 0x00000000)  returns 0x00 (0000ms, 0622ms total)
T1C6C 000:731 JLINK_WriteReg(R12, 0x00000000)  returns 0x00 (0000ms, 0622ms total)
T1C6C 000:731 JLINK_WriteReg(R13 (SP), 0x20001000)  returns 0x00 (0000ms, 0622ms total)
T1C6C 000:731 JLINK_WriteReg(R14, 0x20000001)  returns 0x00 (0000ms, 0622ms total)
T1C6C 000:731 JLINK_WriteReg(R15 (PC), 0x20000038)  returns 0x00 (0000ms, 0622ms total)
T1C6C 000:731 JLINK_WriteReg(XPSR, 0x01000000)  returns 0x00 (0000ms, 0622ms total)
T1C6C 000:731 JLINK_WriteReg(MSP, 0x20001000)  returns 0x00 (0000ms, 0622ms total)
T1C6C 000:731 JLINK_WriteReg(PSP, 0x20001000)  returns 0x00 (0000ms, 0622ms total)
T1C6C 000:731 JLINK_WriteReg(CFBP, 0x00000000)  returns 0x00 (0000ms, 0622ms total)
T1C6C 000:731 JLINK_SetBPEx(Addr = 0x20000000, Type = 0xFFFFFFF2) -- CPU_ReadMem(2 bytes @ 0x20000000)  returns 0x00000001 (0001ms, 0623ms total)
T1C6C 000:732 JLINK_Go() -- CPU_WriteMem(2 bytes @ 0x20000000) -- CPU_ReadMem(4 bytes @ 0xE0001000) -- CPU_WriteMem(4 bytes @ 0xE0002008) -- CPU_WriteMem(4 bytes @ 0xE000200C) -- CPU_WriteMem(4 bytes @ 0xE0002010) -- CPU_WriteMem(4 bytes @ 0xE0002014) -- CPU_WriteMem(4 bytes @ 0xE0002018) -- CPU_WriteMem(4 bytes @ 0xE000201C) -- CPU_WriteMem(4 bytes @ 0xE0001004) (0005ms, 0628ms total)
T1C6C 000:737 JLINK_IsHalted() -- CPU_ReadMem(2 bytes @ 0x20000000)  returns TRUE (0003ms, 0631ms total)
T1C6C 000:740 JLINK_ReadReg(R15 (PC))  returns 0x20000000 (0000ms, 0628ms total)
T1C6C 000:740 JLINK_ClrBPEx(BPHandle = 0x00000001)  returns 0x00 (0000ms, 0628ms total)
T1C6C 000:740 JLINK_ReadReg(R0)  returns 0x00000000 (0000ms, 0628ms total)
T1C6C 000:740 JLINK_WriteReg(R0, 0x08000000)  returns 0x00 (0000ms, 0628ms total)
T1C6C 000:740 JLINK_WriteReg(R1, 0x007A1200)  returns 0x00 (0000ms, 0628ms total)
T1C6C 000:740 JLINK_WriteReg(R2, 0x00000001)  returns 0x00 (0000ms, 0628ms total)
T1C6C 000:740 JLINK_WriteReg(R3, 0x00000000)  returns 0x00 (0001ms, 0629ms total)
T1C6C 000:741 JLINK_WriteReg(R4, 0x00000000)  returns 0x00 (0000ms, 0629ms total)
T1C6C 000:741 JLINK_WriteReg(R5, 0x00000000)  returns 0x00 (0000ms, 0629ms total)
T1C6C 000:741 JLINK_WriteReg(R6, 0x00000000)  returns 0x00 (0000ms, 0629ms total)
T1C6C 000:741 JLINK_WriteReg(R7, 0x00000000)  returns 0x00 (0000ms, 0629ms total)
T1C6C 000:741 JLINK_WriteReg(R8, 0x00000000)  returns 0x00 (0000ms, 0629ms total)
T1C6C 000:741 JLINK_WriteReg(R9, 0x20000160)  returns 0x00 (0000ms, 0629ms total)
T1C6C 000:741 JLINK_WriteReg(R10, 0x00000000)  returns 0x00 (0000ms, 0629ms total)
T1C6C 000:741 JLINK_WriteReg(R11, 0x00000000)  returns 0x00 (0000ms, 0629ms total)
T1C6C 000:741 JLINK_WriteReg(R12, 0x00000000)  returns 0x00 (0000ms, 0629ms total)
T1C6C 000:741 JLINK_WriteReg(R13 (SP), 0x20001000)  returns 0x00 (0000ms, 0629ms total)
T1C6C 000:741 JLINK_WriteReg(R14, 0x20000001)  returns 0x00 (0000ms, 0629ms total)
T1C6C 000:741 JLINK_WriteReg(R15 (PC), 0x2000007C)  returns 0x00 (0000ms, 0629ms total)
T1C6C 000:741 JLINK_WriteReg(XPSR, 0x01000000)  returns 0x00 (0000ms, 0629ms total)
T1C6C 000:741 JLINK_WriteReg(MSP, 0x20001000)  returns 0x00 (0000ms, 0629ms total)
T1C6C 000:741 JLINK_WriteReg(PSP, 0x20001000)  returns 0x00 (0000ms, 0629ms total)
T1C6C 000:741 JLINK_WriteReg(CFBP, 0x00000000)  returns 0x00 (0000ms, 0629ms total)
T1C6C 000:741 JLINK_SetBPEx(Addr = 0x20000000, Type = 0xFFFFFFF2)  returns 0x00000002 (0000ms, 0629ms total)
T1C6C 000:741 JLINK_Go() -- CPU_ReadMem(4 bytes @ 0xE0001000) (0001ms, 0630ms total)
T1C6C 000:742 JLINK_IsHalted()  returns FALSE (0001ms, 0631ms total)
T1C6C 000:802 JLINK_IsHalted() -- CPU_ReadMem(2 bytes @ 0x20000000)  returns TRUE (0003ms, 0633ms total)
T1C6C 000:805 JLINK_ReadReg(R15 (PC))  returns 0x20000000 (0000ms, 0630ms total)
T1C6C 000:805 JLINK_ClrBPEx(BPHandle = 0x00000002)  returns 0x00 (0000ms, 0630ms total)
T1C6C 000:805 JLINK_ReadReg(R0)  returns 0x00000000 (0000ms, 0630ms total)
T1C6C 000:856 JLINK_WriteReg(R0, 0x00000001)  returns 0x00 (0000ms, 0630ms total)
T1C6C 000:856 JLINK_WriteReg(R1, 0x007A1200)  returns 0x00 (0000ms, 0630ms total)
T1C6C 000:856 JLINK_WriteReg(R2, 0x00000001)  returns 0x00 (0000ms, 0630ms total)
T1C6C 000:856 JLINK_WriteReg(R3, 0x00000000)  returns 0x00 (0000ms, 0630ms total)
T1C6C 000:856 JLINK_WriteReg(R4, 0x00000000)  returns 0x00 (0000ms, 0630ms total)
T1C6C 000:856 JLINK_WriteReg(R5, 0x00000000)  returns 0x00 (0000ms, 0630ms total)
T1C6C 000:856 JLINK_WriteReg(R6, 0x00000000)  returns 0x00 (0000ms, 0630ms total)
T1C6C 000:856 JLINK_WriteReg(R7, 0x00000000)  returns 0x00 (0000ms, 0630ms total)
T1C6C 000:856 JLINK_WriteReg(R8, 0x00000000)  returns 0x00 (0000ms, 0630ms total)
T1C6C 000:856 JLINK_WriteReg(R9, 0x20000160)  returns 0x00 (0000ms, 0630ms total)
T1C6C 000:856 JLINK_WriteReg(R10, 0x00000000)  returns 0x00 (0000ms, 0630ms total)
T1C6C 000:856 JLINK_WriteReg(R11, 0x00000000)  returns 0x00 (0000ms, 0630ms total)
T1C6C 000:856 JLINK_WriteReg(R12, 0x00000000)  returns 0x00 (0000ms, 0630ms total)
T1C6C 000:856 JLINK_WriteReg(R13 (SP), 0x20001000)  returns 0x00 (0000ms, 0630ms total)
T1C6C 000:856 JLINK_WriteReg(R14, 0x20000001)  returns 0x00 (0000ms, 0630ms total)
T1C6C 000:856 JLINK_WriteReg(R15 (PC), 0x2000006A)  returns 0x00 (0000ms, 0630ms total)
T1C6C 000:856 JLINK_WriteReg(XPSR, 0x01000000)  returns 0x00 (0000ms, 0630ms total)
T1C6C 000:856 JLINK_WriteReg(MSP, 0x20001000)  returns 0x00 (0000ms, 0630ms total)
T1C6C 000:856 JLINK_WriteReg(PSP, 0x20001000)  returns 0x00 (0000ms, 0630ms total)
T1C6C 000:856 JLINK_WriteReg(CFBP, 0x00000000)  returns 0x00 (0000ms, 0630ms total)
T1C6C 000:856 JLINK_SetBPEx(Addr = 0x20000000, Type = 0xFFFFFFF2)  returns 0x00000003 (0000ms, 0630ms total)
T1C6C 000:856 JLINK_Go() -- CPU_ReadMem(4 bytes @ 0xE0001000) (0002ms, 0632ms total)
T1C6C 000:858 JLINK_IsHalted() -- CPU_ReadMem(2 bytes @ 0x20000000)  returns TRUE (0003ms, 0635ms total)
T1C6C 000:861 JLINK_ReadReg(R15 (PC))  returns 0x20000000 (0000ms, 0632ms total)
T1C6C 000:861 JLINK_ClrBPEx(BPHandle = 0x00000003)  returns 0x00 (0000ms, 0632ms total)
T1C6C 000:861 JLINK_ReadReg(R0)  returns 0x00000000 (0000ms, 0632ms total)
T1C6C 000:864 JLINK_WriteMem(0x20000000, 0x0164 Bytes, ...) - Data: 00 BE 0A E0 0D 78 2D 06 68 40 08 24 40 00 00 D3 ... -- CPU_WriteMem(356 bytes @ 0x20000000)  returns 0x164 (0003ms, 0635ms total)
T1C6C 000:867 JLINK_WriteReg(R0, 0x08000000)  returns 0x00 (0000ms, 0635ms total)
T1C6C 000:867 JLINK_WriteReg(R1, 0x007A1200)  returns 0x00 (0000ms, 0635ms total)
T1C6C 000:867 JLINK_WriteReg(R2, 0x00000002)  returns 0x00 (0000ms, 0635ms total)
T1C6C 000:867 JLINK_WriteReg(R3, 0x00000000)  returns 0x00 (0000ms, 0635ms total)
T1C6C 000:867 JLINK_WriteReg(R4, 0x00000000)  returns 0x00 (0000ms, 0635ms total)
T1C6C 000:867 JLINK_WriteReg(R5, 0x00000000)  returns 0x00 (0000ms, 0635ms total)
T1C6C 000:867 JLINK_WriteReg(R6, 0x00000000)  returns 0x00 (0000ms, 0635ms total)
T1C6C 000:867 JLINK_WriteReg(R7, 0x00000000)  returns 0x00 (0000ms, 0635ms total)
T1C6C 000:867 JLINK_WriteReg(R8, 0x00000000)  returns 0x00 (0000ms, 0635ms total)
T1C6C 000:867 JLINK_WriteReg(R9, 0x20000160)  returns 0x00 (0000ms, 0635ms total)
T1C6C 000:867 JLINK_WriteReg(R10, 0x00000000)  returns 0x00 (0000ms, 0635ms total)
T1C6C 000:867 JLINK_WriteReg(R11, 0x00000000)  returns 0x00 (0000ms, 0635ms total)
T1C6C 000:867 JLINK_WriteReg(R12, 0x00000000)  returns 0x00 (0000ms, 0635ms total)
T1C6C 000:867 JLINK_WriteReg(R13 (SP), 0x20001000)  returns 0x00 (0000ms, 0635ms total)
T1C6C 000:867 JLINK_WriteReg(R14, 0x20000001)  returns 0x00 (0000ms, 0635ms total)
T1C6C 000:867 JLINK_WriteReg(R15 (PC), 0x20000038)  returns 0x00 (0000ms, 0635ms total)
T1C6C 000:867 JLINK_WriteReg(XPSR, 0x01000000)  returns 0x00 (0000ms, 0635ms total)
T1C6C 000:867 JLINK_WriteReg(MSP, 0x20001000)  returns 0x00 (0000ms, 0635ms total)
T1C6C 000:867 JLINK_WriteReg(PSP, 0x20001000)  returns 0x00 (0000ms, 0635ms total)
T1C6C 000:867 JLINK_WriteReg(CFBP, 0x00000000)  returns 0x00 (0000ms, 0635ms total)
T1C6C 000:867 JLINK_SetBPEx(Addr = 0x20000000, Type = 0xFFFFFFF2) -- CPU_ReadMem(2 bytes @ 0x20000000)  returns 0x00000004 (0001ms, 0636ms total)
T1C6C 000:868 JLINK_Go() -- CPU_WriteMem(2 bytes @ 0x20000000) -- CPU_ReadMem(4 bytes @ 0xE0001000) (0002ms, 0638ms total)
T1C6C 000:870 JLINK_IsHalted() -- CPU_ReadMem(2 bytes @ 0x20000000)  returns TRUE (0003ms, 0641ms total)
T1C6C 000:873 JLINK_ReadReg(R15 (PC))  returns 0x20000000 (0000ms, 0638ms total)
T1C6C 000:873 JLINK_ClrBPEx(BPHandle = 0x00000004)  returns 0x00 (0000ms, 0638ms total)
T1C6C 000:873 JLINK_ReadReg(R0)  returns 0x00000000 (0000ms, 0638ms total)
T1C6C 000:873 JLINK_WriteMem(0x20000164, 0x0400 Bytes, ...) - Data: E0 11 00 20 45 01 00 08 8F 21 00 08 21 20 00 08 ... -- CPU_WriteMem(1024 bytes @ 0x20000164)  returns 0x400 (0007ms, 0645ms total)
T1C6C 000:880 JLINK_WriteReg(R0, 0x08000000)  returns 0x00 (0000ms, 0645ms total)
T1C6C 000:880 JLINK_WriteReg(R1, 0x00000400)  returns 0x00 (0000ms, 0645ms total)
T1C6C 000:880 JLINK_WriteReg(R2, 0x20000164)  returns 0x00 (0000ms, 0645ms total)
T1C6C 000:880 JLINK_WriteReg(R3, 0x00000000)  returns 0x00 (0000ms, 0645ms total)
T1C6C 000:880 JLINK_WriteReg(R4, 0x00000000)  returns 0x00 (0000ms, 0645ms total)
T1C6C 000:880 JLINK_WriteReg(R5, 0x00000000)  returns 0x00 (0000ms, 0645ms total)
T1C6C 000:880 JLINK_WriteReg(R6, 0x00000000)  returns 0x00 (0000ms, 0645ms total)
T1C6C 000:880 JLINK_WriteReg(R7, 0x00000000)  returns 0x00 (0000ms, 0645ms total)
T1C6C 000:880 JLINK_WriteReg(R8, 0x00000000)  returns 0x00 (0000ms, 0645ms total)
T1C6C 000:880 JLINK_WriteReg(R9, 0x20000160)  returns 0x00 (0000ms, 0645ms total)
T1C6C 000:880 JLINK_WriteReg(R10, 0x00000000)  returns 0x00 (0000ms, 0645ms total)
T1C6C 000:880 JLINK_WriteReg(R11, 0x00000000)  returns 0x00 (0000ms, 0645ms total)
T1C6C 000:880 JLINK_WriteReg(R12, 0x00000000)  returns 0x00 (0000ms, 0645ms total)
T1C6C 000:880 JLINK_WriteReg(R13 (SP), 0x20001000)  returns 0x00 (0000ms, 0645ms total)
T1C6C 000:880 JLINK_WriteReg(R14, 0x20000001)  returns 0x00 (0000ms, 0645ms total)
T1C6C 000:880 JLINK_WriteReg(R15 (PC), 0x200000F4)  returns 0x00 (0000ms, 0645ms total)
T1C6C 000:880 JLINK_WriteReg(XPSR, 0x01000000)  returns 0x00 (0000ms, 0645ms total)
T1C6C 000:880 JLINK_WriteReg(MSP, 0x20001000)  returns 0x00 (0000ms, 0645ms total)
T1C6C 000:880 JLINK_WriteReg(PSP, 0x20001000)  returns 0x00 (0000ms, 0645ms total)
T1C6C 000:880 JLINK_WriteReg(CFBP, 0x00000000)  returns 0x00 (0000ms, 0645ms total)
T1C6C 000:880 JLINK_SetBPEx(Addr = 0x20000000, Type = 0xFFFFFFF2)  returns 0x00000005 (0000ms, 0645ms total)
T1C6C 000:880 JLINK_Go() -- CPU_ReadMem(4 bytes @ 0xE0001000) (0002ms, 0647ms total)
T1C6C 000:882 JLINK_IsHalted()  returns FALSE (0001ms, 0648ms total)
T1C6C 000:891 JLINK_IsHalted()  returns FALSE (0000ms, 0647ms total)
T1C6C 000:893 JLINK_IsHalted()  returns FALSE (0000ms, 0647ms total)
T1C6C 000:894 JLINK_IsHalted()  returns FALSE (0000ms, 0647ms total)
T1C6C 000:896 JLINK_IsHalted()  returns FALSE (0000ms, 0647ms total)
T1C6C 000:898 JLINK_IsHalted()  returns FALSE (0000ms, 0647ms total)
T1C6C 000:900 JLINK_IsHalted()  returns FALSE (0000ms, 0647ms total)
T1C6C 000:901 JLINK_IsHalted()  returns FALSE (0001ms, 0648ms total)
T1C6C 000:903 JLINK_IsHalted()  returns FALSE (0001ms, 0648ms total)
T1C6C 000:905 JLINK_IsHalted()  returns FALSE (0000ms, 0647ms total)
T1C6C 000:907 JLINK_IsHalted()  returns FALSE (0000ms, 0647ms total)
T1C6C 000:908 JLINK_IsHalted()  returns FALSE (0000ms, 0647ms total)
T1C6C 000:910 JLINK_IsHalted()  returns FALSE (0000ms, 0647ms total)
T1C6C 000:913 JLINK_IsHalted() -- CPU_ReadMem(2 bytes @ 0x20000000)  returns TRUE (0003ms, 0650ms total)
T1C6C 000:916 JLINK_ReadReg(R15 (PC))  returns 0x20000000 (0000ms, 0647ms total)
T1C6C 000:916 JLINK_ClrBPEx(BPHandle = 0x00000005)  returns 0x00 (0000ms, 0647ms total)
T1C6C 000:916 JLINK_ReadReg(R0)  returns 0x00000000 (0000ms, 0647ms total)
T1C6C 000:916 JLINK_WriteMem(0x20000164, 0x0400 Bytes, ...) - Data: 02 F1 00 20 70 47 91 40 C2 F1 20 03 20 FA 03 F3 ... -- CPU_WriteMem(1024 bytes @ 0x20000164)  returns 0x400 (0007ms, 0654ms total)
T1C6C 000:923 JLINK_WriteReg(R0, 0x08000400)  returns 0x00 (0000ms, 0654ms total)
T1C6C 000:923 JLINK_WriteReg(R1, 0x00000400)  returns 0x00 (0000ms, 0654ms total)
T1C6C 000:923 JLINK_WriteReg(R2, 0x20000164)  returns 0x00 (0000ms, 0654ms total)
T1C6C 000:923 JLINK_WriteReg(R3, 0x00000000)  returns 0x00 (0000ms, 0654ms total)
T1C6C 000:923 JLINK_WriteReg(R4, 0x00000000)  returns 0x00 (0000ms, 0654ms total)
T1C6C 000:923 JLINK_WriteReg(R5, 0x00000000)  returns 0x00 (0000ms, 0654ms total)
T1C6C 000:923 JLINK_WriteReg(R6, 0x00000000)  returns 0x00 (0000ms, 0654ms total)
T1C6C 000:923 JLINK_WriteReg(R7, 0x00000000)  returns 0x00 (0000ms, 0654ms total)
T1C6C 000:923 JLINK_WriteReg(R8, 0x00000000)  returns 0x00 (0000ms, 0654ms total)
T1C6C 000:923 JLINK_WriteReg(R9, 0x20000160)  returns 0x00 (0000ms, 0654ms total)
T1C6C 000:923 JLINK_WriteReg(R10, 0x00000000)  returns 0x00 (0000ms, 0654ms total)
T1C6C 000:923 JLINK_WriteReg(R11, 0x00000000)  returns 0x00 (0000ms, 0654ms total)
T1C6C 000:923 JLINK_WriteReg(R12, 0x00000000)  returns 0x00 (0000ms, 0654ms total)
T1C6C 000:923 JLINK_WriteReg(R13 (SP), 0x20001000)  returns 0x00 (0000ms, 0654ms total)
T1C6C 000:923 JLINK_WriteReg(R14, 0x20000001)  returns 0x00 (0000ms, 0654ms total)
T1C6C 000:923 JLINK_WriteReg(R15 (PC), 0x200000F4)  returns 0x00 (0000ms, 0654ms total)
T1C6C 000:923 JLINK_WriteReg(XPSR, 0x01000000)  returns 0x00 (0000ms, 0654ms total)
T1C6C 000:923 JLINK_WriteReg(MSP, 0x20001000)  returns 0x00 (0000ms, 0654ms total)
T1C6C 000:923 JLINK_WriteReg(PSP, 0x20001000)  returns 0x00 (0000ms, 0654ms total)
T1C6C 000:923 JLINK_WriteReg(CFBP, 0x00000000)  returns 0x00 (0000ms, 0654ms total)
T1C6C 000:923 JLINK_SetBPEx(Addr = 0x20000000, Type = 0xFFFFFFF2)  returns 0x00000006 (0000ms, 0654ms total)
T1C6C 000:923 JLINK_Go() -- CPU_ReadMem(4 bytes @ 0xE0001000) (0002ms, 0656ms total)
T1C6C 000:925 JLINK_IsHalted()  returns FALSE (0000ms, 0656ms total)
T1C6C 000:929 JLINK_IsHalted()  returns FALSE (0000ms, 0656ms total)
T1C6C 000:931 JLINK_IsHalted()  returns FALSE (0000ms, 0656ms total)
T1C6C 000:932 JLINK_IsHalted()  returns FALSE (0000ms, 0656ms total)
T1C6C 000:934 JLINK_IsHalted()  returns FALSE (0000ms, 0656ms total)
T1C6C 000:937 JLINK_IsHalted()  returns FALSE (0000ms, 0656ms total)
T1C6C 000:938 JLINK_IsHalted()  returns FALSE (0001ms, 0657ms total)
T1C6C 000:940 JLINK_IsHalted()  returns FALSE (0000ms, 0656ms total)
T1C6C 000:942 JLINK_IsHalted()  returns FALSE (0000ms, 0656ms total)
T1C6C 000:944 JLINK_IsHalted()  returns FALSE (0000ms, 0656ms total)
T1C6C 000:946 JLINK_IsHalted()  returns FALSE (0000ms, 0656ms total)
T1C6C 000:947 JLINK_IsHalted()  returns FALSE (0000ms, 0656ms total)
T1C6C 000:949 JLINK_IsHalted()  returns FALSE (0000ms, 0656ms total)
T1C6C 000:951 JLINK_IsHalted()  returns FALSE (0000ms, 0656ms total)
T1C6C 000:952 JLINK_IsHalted()  returns FALSE (0000ms, 0656ms total)
T1C6C 000:954 JLINK_IsHalted()  returns FALSE (0000ms, 0656ms total)
T1C6C 000:955 JLINK_IsHalted() -- CPU_ReadMem(2 bytes @ 0x20000000)  returns TRUE (0003ms, 0659ms total)
T1C6C 000:958 JLINK_ReadReg(R15 (PC))  returns 0x20000000 (0000ms, 0656ms total)
T1C6C 000:958 JLINK_ClrBPEx(BPHandle = 0x00000006)  returns 0x00 (0000ms, 0656ms total)
T1C6C 000:958 JLINK_ReadReg(R0)  returns 0x00000000 (0000ms, 0656ms total)
T1C6C 000:959 JLINK_WriteMem(0x20000164, 0x0400 Bytes, ...) - Data: A0 69 01 F0 CD FB 03 2D 01 DA 04 F5 E6 74 68 1C ... -- CPU_WriteMem(1024 bytes @ 0x20000164)  returns 0x400 (0006ms, 0662ms total)
T1C6C 000:965 JLINK_WriteReg(R0, 0x08000800)  returns 0x00 (0000ms, 0662ms total)
T1C6C 000:965 JLINK_WriteReg(R1, 0x00000400)  returns 0x00 (0000ms, 0662ms total)
T1C6C 000:965 JLINK_WriteReg(R2, 0x20000164)  returns 0x00 (0000ms, 0662ms total)
T1C6C 000:965 JLINK_WriteReg(R3, 0x00000000)  returns 0x00 (0000ms, 0662ms total)
T1C6C 000:965 JLINK_WriteReg(R4, 0x00000000)  returns 0x00 (0000ms, 0662ms total)
T1C6C 000:965 JLINK_WriteReg(R5, 0x00000000)  returns 0x00 (0000ms, 0662ms total)
T1C6C 000:965 JLINK_WriteReg(R6, 0x00000000)  returns 0x00 (0000ms, 0662ms total)
T1C6C 000:965 JLINK_WriteReg(R7, 0x00000000)  returns 0x00 (0000ms, 0662ms total)
T1C6C 000:965 JLINK_WriteReg(R8, 0x00000000)  returns 0x00 (0000ms, 0662ms total)
T1C6C 000:965 JLINK_WriteReg(R9, 0x20000160)  returns 0x00 (0000ms, 0662ms total)
T1C6C 000:965 JLINK_WriteReg(R10, 0x00000000)  returns 0x00 (0000ms, 0662ms total)
T1C6C 000:965 JLINK_WriteReg(R11, 0x00000000)  returns 0x00 (0000ms, 0662ms total)
T1C6C 000:965 JLINK_WriteReg(R12, 0x00000000)  returns 0x00 (0000ms, 0662ms total)
T1C6C 000:965 JLINK_WriteReg(R13 (SP), 0x20001000)  returns 0x00 (0000ms, 0662ms total)
T1C6C 000:965 JLINK_WriteReg(R14, 0x20000001)  returns 0x00 (0000ms, 0662ms total)
T1C6C 000:965 JLINK_WriteReg(R15 (PC), 0x200000F4)  returns 0x00 (0000ms, 0662ms total)
T1C6C 000:965 JLINK_WriteReg(XPSR, 0x01000000)  returns 0x00 (0000ms, 0662ms total)
T1C6C 000:965 JLINK_WriteReg(MSP, 0x20001000)  returns 0x00 (0000ms, 0662ms total)
T1C6C 000:965 JLINK_WriteReg(PSP, 0x20001000)  returns 0x00 (0000ms, 0662ms total)
T1C6C 000:965 JLINK_WriteReg(CFBP, 0x00000000)  returns 0x00 (0000ms, 0662ms total)
T1C6C 000:965 JLINK_SetBPEx(Addr = 0x20000000, Type = 0xFFFFFFF2)  returns 0x00000007 (0000ms, 0662ms total)
T1C6C 000:965 JLINK_Go() -- CPU_ReadMem(4 bytes @ 0xE0001000) (0002ms, 0664ms total)
T1C6C 000:967 JLINK_IsHalted()  returns FALSE (0001ms, 0665ms total)
T1C6C 000:970 JLINK_IsHalted()  returns FALSE (0000ms, 0664ms total)
T1C6C 000:972 JLINK_IsHalted()  returns FALSE (0000ms, 0664ms total)
T1C6C 000:974 JLINK_IsHalted()  returns FALSE (0000ms, 0664ms total)
T1C6C 000:975 JLINK_IsHalted()  returns FALSE (0000ms, 0664ms total)
T1C6C 000:977 JLINK_IsHalted()  returns FALSE (0001ms, 0665ms total)
T1C6C 000:979 JLINK_IsHalted()  returns FALSE (0000ms, 0664ms total)
T1C6C 000:980 JLINK_IsHalted()  returns FALSE (0001ms, 0665ms total)
T1C6C 000:982 JLINK_IsHalted()  returns FALSE (0001ms, 0665ms total)
T1C6C 000:984 JLINK_IsHalted()  returns FALSE (0001ms, 0665ms total)
T1C6C 000:986 JLINK_IsHalted()  returns FALSE (0000ms, 0664ms total)
T1C6C 000:988 JLINK_IsHalted()  returns FALSE (0000ms, 0664ms total)
T1C6C 000:989 JLINK_IsHalted()  returns FALSE (0001ms, 0665ms total)
T1C6C 000:992 JLINK_IsHalted()  returns FALSE (0000ms, 0664ms total)
T1C6C 000:993 JLINK_IsHalted()  returns FALSE (0001ms, 0665ms total)
T1C6C 000:995 JLINK_IsHalted()  returns FALSE (0001ms, 0665ms total)
T1C6C 000:997 JLINK_IsHalted()  returns FALSE (0001ms, 0665ms total)
T1C6C 000:999 JLINK_IsHalted() -- CPU_ReadMem(2 bytes @ 0x20000000)  returns TRUE (0002ms, 0666ms total)
T1C6C 001:001 JLINK_ReadReg(R15 (PC))  returns 0x20000000 (0001ms, 0665ms total)
T1C6C 001:002 JLINK_ClrBPEx(BPHandle = 0x00000007)  returns 0x00 (0000ms, 0665ms total)
T1C6C 001:002 JLINK_ReadReg(R0)  returns 0x00000000 (0000ms, 0665ms total)
T1C6C 001:002 JLINK_WriteMem(0x20000164, 0x0400 Bytes, ...) - Data: 09 22 01 46 03 48 02 F0 0D F8 70 BD F8 00 00 20 ... -- CPU_WriteMem(1024 bytes @ 0x20000164)  returns 0x400 (0007ms, 0672ms total)
T1C6C 001:009 JLINK_WriteReg(R0, 0x08000C00)  returns 0x00 (0000ms, 0672ms total)
T1C6C 001:009 JLINK_WriteReg(R1, 0x00000400)  returns 0x00 (0000ms, 0672ms total)
T1C6C 001:009 JLINK_WriteReg(R2, 0x20000164)  returns 0x00 (0000ms, 0672ms total)
T1C6C 001:009 JLINK_WriteReg(R3, 0x00000000)  returns 0x00 (0000ms, 0672ms total)
T1C6C 001:009 JLINK_WriteReg(R4, 0x00000000)  returns 0x00 (0000ms, 0672ms total)
T1C6C 001:009 JLINK_WriteReg(R5, 0x00000000)  returns 0x00 (0000ms, 0672ms total)
T1C6C 001:009 JLINK_WriteReg(R6, 0x00000000)  returns 0x00 (0000ms, 0672ms total)
T1C6C 001:009 JLINK_WriteReg(R7, 0x00000000)  returns 0x00 (0000ms, 0672ms total)
T1C6C 001:009 JLINK_WriteReg(R8, 0x00000000)  returns 0x00 (0000ms, 0672ms total)
T1C6C 001:009 JLINK_WriteReg(R9, 0x20000160)  returns 0x00 (0000ms, 0672ms total)
T1C6C 001:009 JLINK_WriteReg(R10, 0x00000000)  returns 0x00 (0000ms, 0672ms total)
T1C6C 001:009 JLINK_WriteReg(R11, 0x00000000)  returns 0x00 (0000ms, 0672ms total)
T1C6C 001:009 JLINK_WriteReg(R12, 0x00000000)  returns 0x00 (0000ms, 0672ms total)
T1C6C 001:009 JLINK_WriteReg(R13 (SP), 0x20001000)  returns 0x00 (0000ms, 0672ms total)
T1C6C 001:009 JLINK_WriteReg(R14, 0x20000001)  returns 0x00 (0000ms, 0672ms total)
T1C6C 001:009 JLINK_WriteReg(R15 (PC), 0x200000F4)  returns 0x00 (0000ms, 0672ms total)
T1C6C 001:009 JLINK_WriteReg(XPSR, 0x01000000)  returns 0x00 (0000ms, 0672ms total)
T1C6C 001:009 JLINK_WriteReg(MSP, 0x20001000)  returns 0x00 (0000ms, 0672ms total)
T1C6C 001:009 JLINK_WriteReg(PSP, 0x20001000)  returns 0x00 (0000ms, 0672ms total)
T1C6C 001:009 JLINK_WriteReg(CFBP, 0x00000000)  returns 0x00 (0000ms, 0672ms total)
T1C6C 001:009 JLINK_SetBPEx(Addr = 0x20000000, Type = 0xFFFFFFF2)  returns 0x00000008 (0000ms, 0672ms total)
T1C6C 001:009 JLINK_Go() -- CPU_ReadMem(4 bytes @ 0xE0001000) (0002ms, 0674ms total)
T1C6C 001:011 JLINK_IsHalted()  returns FALSE (0001ms, 0675ms total)
T1C6C 001:013 JLINK_IsHalted()  returns FALSE (0001ms, 0675ms total)
T1C6C 001:015 JLINK_IsHalted()  returns FALSE (0000ms, 0674ms total)
T1C6C 001:017 JLINK_IsHalted()  returns FALSE (0000ms, 0674ms total)
T1C6C 001:018 JLINK_IsHalted()  returns FALSE (0001ms, 0675ms total)
T1C6C 001:020 JLINK_IsHalted()  returns FALSE (0000ms, 0674ms total)
T1C6C 001:022 JLINK_IsHalted()  returns FALSE (0000ms, 0674ms total)
T1C6C 001:024 JLINK_IsHalted()  returns FALSE (0000ms, 0674ms total)
T1C6C 001:029 JLINK_IsHalted()  returns FALSE (0000ms, 0674ms total)
T1C6C 001:030 JLINK_IsHalted()  returns FALSE (0000ms, 0674ms total)
T1C6C 001:032 JLINK_IsHalted()  returns FALSE (0001ms, 0675ms total)
T1C6C 001:035 JLINK_IsHalted()  returns FALSE (0000ms, 0674ms total)
T1C6C 001:037 JLINK_IsHalted()  returns FALSE (0000ms, 0674ms total)
T1C6C 001:038 JLINK_IsHalted()  returns FALSE (0001ms, 0675ms total)
T1C6C 001:040 JLINK_IsHalted()  returns FALSE (0000ms, 0674ms total)
T1C6C 001:041 JLINK_IsHalted()  returns FALSE (0000ms, 0674ms total)
T1C6C 001:043 JLINK_IsHalted() -- CPU_ReadMem(2 bytes @ 0x20000000)  returns TRUE (0003ms, 0677ms total)
T1C6C 001:046 JLINK_ReadReg(R15 (PC))  returns 0x20000000 (0000ms, 0674ms total)
T1C6C 001:046 JLINK_ClrBPEx(BPHandle = 0x00000008)  returns 0x00 (0000ms, 0674ms total)
T1C6C 001:046 JLINK_ReadReg(R0)  returns 0x00000000 (0000ms, 0674ms total)
T1C6C 001:046 JLINK_WriteMem(0x20000164, 0x0400 Bytes, ...) - Data: 25 21 84 F8 3C 10 04 21 84 F8 38 10 35 E0 94 F8 ... -- CPU_WriteMem(1024 bytes @ 0x20000164)  returns 0x400 (0007ms, 0681ms total)
T1C6C 001:053 JLINK_WriteReg(R0, 0x08001000)  returns 0x00 (0000ms, 0681ms total)
T1C6C 001:053 JLINK_WriteReg(R1, 0x00000400)  returns 0x00 (0000ms, 0681ms total)
T1C6C 001:053 JLINK_WriteReg(R2, 0x20000164)  returns 0x00 (0000ms, 0681ms total)
T1C6C 001:053 JLINK_WriteReg(R3, 0x00000000)  returns 0x00 (0000ms, 0681ms total)
T1C6C 001:053 JLINK_WriteReg(R4, 0x00000000)  returns 0x00 (0000ms, 0681ms total)
T1C6C 001:053 JLINK_WriteReg(R5, 0x00000000)  returns 0x00 (0000ms, 0681ms total)
T1C6C 001:053 JLINK_WriteReg(R6, 0x00000000)  returns 0x00 (0000ms, 0681ms total)
T1C6C 001:053 JLINK_WriteReg(R7, 0x00000000)  returns 0x00 (0000ms, 0681ms total)
T1C6C 001:053 JLINK_WriteReg(R8, 0x00000000)  returns 0x00 (0000ms, 0681ms total)
T1C6C 001:053 JLINK_WriteReg(R9, 0x20000160)  returns 0x00 (0000ms, 0681ms total)
T1C6C 001:053 JLINK_WriteReg(R10, 0x00000000)  returns 0x00 (0000ms, 0681ms total)
T1C6C 001:053 JLINK_WriteReg(R11, 0x00000000)  returns 0x00 (0000ms, 0681ms total)
T1C6C 001:053 JLINK_WriteReg(R12, 0x00000000)  returns 0x00 (0000ms, 0681ms total)
T1C6C 001:053 JLINK_WriteReg(R13 (SP), 0x20001000)  returns 0x00 (0000ms, 0681ms total)
T1C6C 001:053 JLINK_WriteReg(R14, 0x20000001)  returns 0x00 (0000ms, 0681ms total)
T1C6C 001:053 JLINK_WriteReg(R15 (PC), 0x200000F4)  returns 0x00 (0000ms, 0681ms total)
T1C6C 001:053 JLINK_WriteReg(XPSR, 0x01000000)  returns 0x00 (0000ms, 0681ms total)
T1C6C 001:053 JLINK_WriteReg(MSP, 0x20001000)  returns 0x00 (0000ms, 0681ms total)
T1C6C 001:053 JLINK_WriteReg(PSP, 0x20001000)  returns 0x00 (0000ms, 0681ms total)
T1C6C 001:053 JLINK_WriteReg(CFBP, 0x00000000)  returns 0x00 (0000ms, 0681ms total)
T1C6C 001:053 JLINK_SetBPEx(Addr = 0x20000000, Type = 0xFFFFFFF2)  returns 0x00000009 (0000ms, 0681ms total)
T1C6C 001:053 JLINK_Go() -- CPU_ReadMem(4 bytes @ 0xE0001000) (0001ms, 0682ms total)
T1C6C 001:054 JLINK_IsHalted()  returns FALSE (0001ms, 0683ms total)
T1C6C 001:058 JLINK_IsHalted()  returns FALSE (0000ms, 0682ms total)
T1C6C 001:059 JLINK_IsHalted()  returns FALSE (0000ms, 0682ms total)
T1C6C 001:061 JLINK_IsHalted()  returns FALSE (0000ms, 0682ms total)
T1C6C 001:063 JLINK_IsHalted()  returns FALSE (0000ms, 0682ms total)
T1C6C 001:064 JLINK_IsHalted()  returns FALSE (0001ms, 0683ms total)
T1C6C 001:066 JLINK_IsHalted()  returns FALSE (0000ms, 0682ms total)
T1C6C 001:067 JLINK_IsHalted()  returns FALSE (0001ms, 0683ms total)
T1C6C 001:069 JLINK_IsHalted()  returns FALSE (0001ms, 0683ms total)
T1C6C 001:071 JLINK_IsHalted()  returns FALSE (0000ms, 0682ms total)
T1C6C 001:073 JLINK_IsHalted()  returns FALSE (0000ms, 0682ms total)
T1C6C 001:075 JLINK_IsHalted()  returns FALSE (0000ms, 0682ms total)
T1C6C 001:079 JLINK_IsHalted()  returns FALSE (0001ms, 0683ms total)
T1C6C 001:081 JLINK_IsHalted()  returns FALSE (0000ms, 0682ms total)
T1C6C 001:083 JLINK_IsHalted()  returns FALSE (0000ms, 0682ms total)
T1C6C 001:085 JLINK_IsHalted()  returns FALSE (0000ms, 0682ms total)
T1C6C 001:086 JLINK_IsHalted() -- CPU_ReadMem(2 bytes @ 0x20000000)  returns TRUE (0003ms, 0685ms total)
T1C6C 001:089 JLINK_ReadReg(R15 (PC))  returns 0x20000000 (0000ms, 0682ms total)
T1C6C 001:089 JLINK_ClrBPEx(BPHandle = 0x00000009)  returns 0x00 (0000ms, 0682ms total)
T1C6C 001:089 JLINK_ReadReg(R0)  returns 0x00000000 (0000ms, 0682ms total)
T1C6C 001:090 JLINK_WriteMem(0x20000164, 0x0400 Bytes, ...) - Data: 20 70 9C 48 20 38 FF F7 07 FA 11 E0 06 2D 0F D1 ... -- CPU_WriteMem(1024 bytes @ 0x20000164)  returns 0x400 (0006ms, 0688ms total)
T1C6C 001:096 JLINK_WriteReg(R0, 0x08001400)  returns 0x00 (0000ms, 0688ms total)
T1C6C 001:096 JLINK_WriteReg(R1, 0x00000400)  returns 0x00 (0000ms, 0688ms total)
T1C6C 001:096 JLINK_WriteReg(R2, 0x20000164)  returns 0x00 (0000ms, 0688ms total)
T1C6C 001:096 JLINK_WriteReg(R3, 0x00000000)  returns 0x00 (0000ms, 0688ms total)
T1C6C 001:096 JLINK_WriteReg(R4, 0x00000000)  returns 0x00 (0000ms, 0688ms total)
T1C6C 001:096 JLINK_WriteReg(R5, 0x00000000)  returns 0x00 (0000ms, 0688ms total)
T1C6C 001:096 JLINK_WriteReg(R6, 0x00000000)  returns 0x00 (0000ms, 0688ms total)
T1C6C 001:096 JLINK_WriteReg(R7, 0x00000000)  returns 0x00 (0000ms, 0688ms total)
T1C6C 001:096 JLINK_WriteReg(R8, 0x00000000)  returns 0x00 (0000ms, 0688ms total)
T1C6C 001:096 JLINK_WriteReg(R9, 0x20000160)  returns 0x00 (0000ms, 0688ms total)
T1C6C 001:096 JLINK_WriteReg(R10, 0x00000000)  returns 0x00 (0000ms, 0688ms total)
T1C6C 001:096 JLINK_WriteReg(R11, 0x00000000)  returns 0x00 (0000ms, 0688ms total)
T1C6C 001:096 JLINK_WriteReg(R12, 0x00000000)  returns 0x00 (0000ms, 0688ms total)
T1C6C 001:096 JLINK_WriteReg(R13 (SP), 0x20001000)  returns 0x00 (0000ms, 0688ms total)
T1C6C 001:096 JLINK_WriteReg(R14, 0x20000001)  returns 0x00 (0000ms, 0688ms total)
T1C6C 001:096 JLINK_WriteReg(R15 (PC), 0x200000F4)  returns 0x00 (0000ms, 0688ms total)
T1C6C 001:096 JLINK_WriteReg(XPSR, 0x01000000)  returns 0x00 (0000ms, 0688ms total)
T1C6C 001:096 JLINK_WriteReg(MSP, 0x20001000)  returns 0x00 (0000ms, 0688ms total)
T1C6C 001:096 JLINK_WriteReg(PSP, 0x20001000)  returns 0x00 (0000ms, 0688ms total)
T1C6C 001:096 JLINK_WriteReg(CFBP, 0x00000000)  returns 0x00 (0000ms, 0688ms total)
T1C6C 001:096 JLINK_SetBPEx(Addr = 0x20000000, Type = 0xFFFFFFF2)  returns 0x0000000A (0000ms, 0688ms total)
T1C6C 001:096 JLINK_Go() -- CPU_ReadMem(4 bytes @ 0xE0001000) (0002ms, 0690ms total)
T1C6C 001:098 JLINK_IsHalted()  returns FALSE (0001ms, 0691ms total)
T1C6C 001:100 JLINK_IsHalted()  returns FALSE (0000ms, 0690ms total)
T1C6C 001:101 JLINK_IsHalted()  returns FALSE (0001ms, 0691ms total)
T1C6C 001:103 JLINK_IsHalted()  returns FALSE (0000ms, 0690ms total)
T1C6C 001:105 JLINK_IsHalted()  returns FALSE (0000ms, 0690ms total)
T1C6C 001:106 JLINK_IsHalted()  returns FALSE (0000ms, 0690ms total)
T1C6C 001:108 JLINK_IsHalted()  returns FALSE (0000ms, 0690ms total)
T1C6C 001:109 JLINK_IsHalted()  returns FALSE (0000ms, 0690ms total)
T1C6C 001:111 JLINK_IsHalted()  returns FALSE (0000ms, 0690ms total)
T1C6C 001:112 JLINK_IsHalted()  returns FALSE (0000ms, 0690ms total)
T1C6C 001:114 JLINK_IsHalted()  returns FALSE (0001ms, 0691ms total)
T1C6C 001:116 JLINK_IsHalted()  returns FALSE (0001ms, 0691ms total)
T1C6C 001:118 JLINK_IsHalted()  returns FALSE (0000ms, 0690ms total)
T1C6C 001:119 JLINK_IsHalted()  returns FALSE (0000ms, 0690ms total)
T1C6C 001:121 JLINK_IsHalted()  returns FALSE (0001ms, 0691ms total)
T1C6C 001:123 JLINK_IsHalted()  returns FALSE (0001ms, 0691ms total)
T1C6C 001:125 JLINK_IsHalted()  returns FALSE (0000ms, 0690ms total)
T1C6C 001:127 JLINK_IsHalted()  returns FALSE (0000ms, 0690ms total)
T1C6C 001:129 JLINK_IsHalted() -- CPU_ReadMem(2 bytes @ 0x20000000)  returns TRUE (0003ms, 0693ms total)
T1C6C 001:132 JLINK_ReadReg(R15 (PC))  returns 0x20000000 (0000ms, 0690ms total)
T1C6C 001:132 JLINK_ClrBPEx(BPHandle = 0x0000000A)  returns 0x00 (0000ms, 0690ms total)
T1C6C 001:132 JLINK_ReadReg(R0)  returns 0x00000000 (0000ms, 0690ms total)
T1C6C 001:132 JLINK_WriteMem(0x20000164, 0x0400 Bytes, ...) - Data: D1 E9 04 45 2C 43 23 43 8C 69 23 43 CC 69 23 43 ... -- CPU_WriteMem(1024 bytes @ 0x20000164)  returns 0x400 (0007ms, 0697ms total)
T1C6C 001:139 JLINK_WriteReg(R0, 0x08001800)  returns 0x00 (0000ms, 0697ms total)
T1C6C 001:139 JLINK_WriteReg(R1, 0x00000400)  returns 0x00 (0000ms, 0697ms total)
T1C6C 001:139 JLINK_WriteReg(R2, 0x20000164)  returns 0x00 (0000ms, 0697ms total)
T1C6C 001:139 JLINK_WriteReg(R3, 0x00000000)  returns 0x00 (0000ms, 0697ms total)
T1C6C 001:139 JLINK_WriteReg(R4, 0x00000000)  returns 0x00 (0000ms, 0697ms total)
T1C6C 001:139 JLINK_WriteReg(R5, 0x00000000)  returns 0x00 (0000ms, 0697ms total)
T1C6C 001:139 JLINK_WriteReg(R6, 0x00000000)  returns 0x00 (0000ms, 0697ms total)
T1C6C 001:139 JLINK_WriteReg(R7, 0x00000000)  returns 0x00 (0000ms, 0697ms total)
T1C6C 001:139 JLINK_WriteReg(R8, 0x00000000)  returns 0x00 (0000ms, 0697ms total)
T1C6C 001:139 JLINK_WriteReg(R9, 0x20000160)  returns 0x00 (0000ms, 0697ms total)
T1C6C 001:139 JLINK_WriteReg(R10, 0x00000000)  returns 0x00 (0000ms, 0697ms total)
T1C6C 001:139 JLINK_WriteReg(R11, 0x00000000)  returns 0x00 (0000ms, 0697ms total)
T1C6C 001:139 JLINK_WriteReg(R12, 0x00000000)  returns 0x00 (0000ms, 0697ms total)
T1C6C 001:139 JLINK_WriteReg(R13 (SP), 0x20001000)  returns 0x00 (0000ms, 0697ms total)
T1C6C 001:139 JLINK_WriteReg(R14, 0x20000001)  returns 0x00 (0000ms, 0697ms total)
T1C6C 001:139 JLINK_WriteReg(R15 (PC), 0x200000F4)  returns 0x00 (0000ms, 0697ms total)
T1C6C 001:139 JLINK_WriteReg(XPSR, 0x01000000)  returns 0x00 (0000ms, 0697ms total)
T1C6C 001:139 JLINK_WriteReg(MSP, 0x20001000)  returns 0x00 (0000ms, 0697ms total)
T1C6C 001:139 JLINK_WriteReg(PSP, 0x20001000)  returns 0x00 (0000ms, 0697ms total)
T1C6C 001:139 JLINK_WriteReg(CFBP, 0x00000000)  returns 0x00 (0000ms, 0697ms total)
T1C6C 001:139 JLINK_SetBPEx(Addr = 0x20000000, Type = 0xFFFFFFF2)  returns 0x0000000B (0000ms, 0697ms total)
T1C6C 001:139 JLINK_Go() -- CPU_ReadMem(4 bytes @ 0xE0001000) (0002ms, 0699ms total)
T1C6C 001:141 JLINK_IsHalted()  returns FALSE (0001ms, 0700ms total)
T1C6C 001:156 JLINK_IsHalted()  returns FALSE (0000ms, 0699ms total)
T1C6C 001:158 JLINK_IsHalted()  returns FALSE (0001ms, 0700ms total)
T1C6C 001:160 JLINK_IsHalted()  returns FALSE (0000ms, 0699ms total)
T1C6C 001:162 JLINK_IsHalted()  returns FALSE (0000ms, 0699ms total)
T1C6C 001:164 JLINK_IsHalted()  returns FALSE (0000ms, 0699ms total)
T1C6C 001:165 JLINK_IsHalted()  returns FALSE (0001ms, 0700ms total)
T1C6C 001:167 JLINK_IsHalted()  returns FALSE (0000ms, 0699ms total)
T1C6C 001:169 JLINK_IsHalted()  returns FALSE (0000ms, 0699ms total)
T1C6C 001:170 JLINK_IsHalted()  returns FALSE (0001ms, 0700ms total)
T1C6C 001:172 JLINK_IsHalted() -- CPU_ReadMem(2 bytes @ 0x20000000)  returns TRUE (0002ms, 0701ms total)
T1C6C 001:174 JLINK_ReadReg(R15 (PC))  returns 0x20000000 (0001ms, 0700ms total)
T1C6C 001:175 JLINK_ClrBPEx(BPHandle = 0x0000000B)  returns 0x00 (0000ms, 0700ms total)
T1C6C 001:175 JLINK_ReadReg(R0)  returns 0x00000000 (0000ms, 0700ms total)
T1C6C 001:176 JLINK_WriteMem(0x20000164, 0x0400 Bytes, ...) - Data: 00 F0 96 FE 00 21 BD E8 10 40 01 20 00 F0 90 BE ... -- CPU_WriteMem(1024 bytes @ 0x20000164)  returns 0x400 (0007ms, 0707ms total)
T1C6C 001:183 JLINK_WriteReg(R0, 0x08001C00)  returns 0x00 (0000ms, 0707ms total)
T1C6C 001:183 JLINK_WriteReg(R1, 0x00000400)  returns 0x00 (0000ms, 0707ms total)
T1C6C 001:183 JLINK_WriteReg(R2, 0x20000164)  returns 0x00 (0000ms, 0707ms total)
T1C6C 001:183 JLINK_WriteReg(R3, 0x00000000)  returns 0x00 (0000ms, 0707ms total)
T1C6C 001:183 JLINK_WriteReg(R4, 0x00000000)  returns 0x00 (0000ms, 0707ms total)
T1C6C 001:183 JLINK_WriteReg(R5, 0x00000000)  returns 0x00 (0000ms, 0707ms total)
T1C6C 001:183 JLINK_WriteReg(R6, 0x00000000)  returns 0x00 (0000ms, 0707ms total)
T1C6C 001:183 JLINK_WriteReg(R7, 0x00000000)  returns 0x00 (0000ms, 0707ms total)
T1C6C 001:183 JLINK_WriteReg(R8, 0x00000000)  returns 0x00 (0000ms, 0707ms total)
T1C6C 001:183 JLINK_WriteReg(R9, 0x20000160)  returns 0x00 (0000ms, 0707ms total)
T1C6C 001:183 JLINK_WriteReg(R10, 0x00000000)  returns 0x00 (0000ms, 0707ms total)
T1C6C 001:183 JLINK_WriteReg(R11, 0x00000000)  returns 0x00 (0000ms, 0707ms total)
T1C6C 001:183 JLINK_WriteReg(R12, 0x00000000)  returns 0x00 (0000ms, 0707ms total)
T1C6C 001:183 JLINK_WriteReg(R13 (SP), 0x20001000)  returns 0x00 (0000ms, 0707ms total)
T1C6C 001:183 JLINK_WriteReg(R14, 0x20000001)  returns 0x00 (0000ms, 0707ms total)
T1C6C 001:183 JLINK_WriteReg(R15 (PC), 0x200000F4)  returns 0x00 (0001ms, 0708ms total)
T1C6C 001:184 JLINK_WriteReg(XPSR, 0x01000000)  returns 0x00 (0000ms, 0708ms total)
T1C6C 001:184 JLINK_WriteReg(MSP, 0x20001000)  returns 0x00 (0000ms, 0708ms total)
T1C6C 001:184 JLINK_WriteReg(PSP, 0x20001000)  returns 0x00 (0000ms, 0708ms total)
T1C6C 001:184 JLINK_WriteReg(CFBP, 0x00000000)  returns 0x00 (0000ms, 0708ms total)
T1C6C 001:184 JLINK_SetBPEx(Addr = 0x20000000, Type = 0xFFFFFFF2)  returns 0x0000000C (0000ms, 0708ms total)
T1C6C 001:184 JLINK_Go() -- CPU_ReadMem(4 bytes @ 0xE0001000) (0001ms, 0709ms total)
T1C6C 001:185 JLINK_IsHalted()  returns FALSE (0001ms, 0710ms total)
T1C6C 001:190 JLINK_IsHalted()  returns FALSE (0000ms, 0709ms total)
T1C6C 001:191 JLINK_IsHalted()  returns FALSE (0001ms, 0710ms total)
T1C6C 001:193 JLINK_IsHalted()  returns FALSE (0000ms, 0709ms total)
T1C6C 001:195 JLINK_IsHalted()  returns FALSE (0000ms, 0709ms total)
T1C6C 001:196 JLINK_IsHalted()  returns FALSE (0000ms, 0709ms total)
T1C6C 001:198 JLINK_IsHalted()  returns FALSE (0000ms, 0709ms total)
T1C6C 001:199 JLINK_IsHalted()  returns FALSE (0000ms, 0709ms total)
T1C6C 001:201 JLINK_IsHalted()  returns FALSE (0000ms, 0709ms total)
T1C6C 001:202 JLINK_IsHalted()  returns FALSE (0000ms, 0709ms total)
T1C6C 001:204 JLINK_IsHalted()  returns FALSE (0000ms, 0709ms total)
T1C6C 001:206 JLINK_IsHalted()  returns FALSE (0000ms, 0709ms total)
T1C6C 001:207 JLINK_IsHalted()  returns FALSE (0001ms, 0710ms total)
T1C6C 001:209 JLINK_IsHalted()  returns FALSE (0000ms, 0709ms total)
T1C6C 001:211 JLINK_IsHalted()  returns FALSE (0000ms, 0709ms total)
T1C6C 001:213 JLINK_IsHalted()  returns FALSE (0000ms, 0709ms total)
T1C6C 001:215 JLINK_IsHalted()  returns FALSE (0001ms, 0710ms total)
T1C6C 001:217 JLINK_IsHalted() -- CPU_ReadMem(2 bytes @ 0x20000000)  returns TRUE (0003ms, 0712ms total)
T1C6C 001:220 JLINK_ReadReg(R15 (PC))  returns 0x20000000 (0000ms, 0709ms total)
T1C6C 001:220 JLINK_ClrBPEx(BPHandle = 0x0000000C)  returns 0x00 (0000ms, 0709ms total)
T1C6C 001:220 JLINK_ReadReg(R0)  returns 0x00000000 (0000ms, 0709ms total)
T1C6C 001:221 JLINK_WriteMem(0x20000164, 0x0400 Bytes, ...) - Data: 05 4A 4F F4 96 41 05 48 00 F0 3D FF 01 21 04 20 ... -- CPU_WriteMem(1024 bytes @ 0x20000164)  returns 0x400 (0006ms, 0715ms total)
T1C6C 001:227 JLINK_WriteReg(R0, 0x08002000)  returns 0x00 (0000ms, 0715ms total)
T1C6C 001:227 JLINK_WriteReg(R1, 0x00000400)  returns 0x00 (0000ms, 0715ms total)
T1C6C 001:227 JLINK_WriteReg(R2, 0x20000164)  returns 0x00 (0000ms, 0715ms total)
T1C6C 001:227 JLINK_WriteReg(R3, 0x00000000)  returns 0x00 (0000ms, 0715ms total)
T1C6C 001:227 JLINK_WriteReg(R4, 0x00000000)  returns 0x00 (0000ms, 0715ms total)
T1C6C 001:227 JLINK_WriteReg(R5, 0x00000000)  returns 0x00 (0000ms, 0715ms total)
T1C6C 001:227 JLINK_WriteReg(R6, 0x00000000)  returns 0x00 (0000ms, 0715ms total)
T1C6C 001:227 JLINK_WriteReg(R7, 0x00000000)  returns 0x00 (0000ms, 0715ms total)
T1C6C 001:227 JLINK_WriteReg(R8, 0x00000000)  returns 0x00 (0000ms, 0715ms total)
T1C6C 001:227 JLINK_WriteReg(R9, 0x20000160)  returns 0x00 (0000ms, 0715ms total)
T1C6C 001:228 JLINK_WriteReg(R10, 0x00000000)  returns 0x00 (0000ms, 0716ms total)
T1C6C 001:228 JLINK_WriteReg(R11, 0x00000000)  returns 0x00 (0000ms, 0716ms total)
T1C6C 001:228 JLINK_WriteReg(R12, 0x00000000)  returns 0x00 (0000ms, 0716ms total)
T1C6C 001:228 JLINK_WriteReg(R13 (SP), 0x20001000)  returns 0x00 (0000ms, 0716ms total)
T1C6C 001:228 JLINK_WriteReg(R14, 0x20000001)  returns 0x00 (0000ms, 0716ms total)
T1C6C 001:228 JLINK_WriteReg(R15 (PC), 0x200000F4)  returns 0x00 (0000ms, 0716ms total)
T1C6C 001:228 JLINK_WriteReg(XPSR, 0x01000000)  returns 0x00 (0000ms, 0716ms total)
T1C6C 001:228 JLINK_WriteReg(MSP, 0x20001000)  returns 0x00 (0000ms, 0716ms total)
T1C6C 001:228 JLINK_WriteReg(PSP, 0x20001000)  returns 0x00 (0000ms, 0716ms total)
T1C6C 001:228 JLINK_WriteReg(CFBP, 0x00000000)  returns 0x00 (0000ms, 0716ms total)
T1C6C 001:228 JLINK_SetBPEx(Addr = 0x20000000, Type = 0xFFFFFFF2)  returns 0x0000000D (0000ms, 0716ms total)
T1C6C 001:228 JLINK_Go() -- CPU_ReadMem(4 bytes @ 0xE0001000) (0002ms, 0718ms total)
T1C6C 001:230 JLINK_IsHalted()  returns FALSE (0000ms, 0718ms total)
T1C6C 001:232 JLINK_IsHalted()  returns FALSE (0000ms, 0718ms total)
T1C6C 001:233 JLINK_IsHalted()  returns FALSE (0000ms, 0718ms total)
T1C6C 001:235 JLINK_IsHalted()  returns FALSE (0000ms, 0718ms total)
T1C6C 001:236 JLINK_IsHalted()  returns FALSE (0000ms, 0718ms total)
T1C6C 001:238 JLINK_IsHalted()  returns FALSE (0000ms, 0718ms total)
T1C6C 001:239 JLINK_IsHalted()  returns FALSE (0000ms, 0718ms total)
